01 03 0B C6 00 01 66 13,VOLT:N_PH,0,0,0
01 03 0C 17 00 01 37 5E,VOLT:SD,0,0,0
01 03 0C 18 00 01 07 5D,VOLT:G_WRN,0,0,0
01 03 0C 19 00 01 56 9D,VOLT:L_WRN,0,0,0
01 03 0C 1A 00 01 A6 9D,VOLT:BOC,0,0,0
01 03 0B C8 00 01 07 D0,FREQ:NOM,0,0,0
01 03 0C 1E 00 01 E7 5C,FREQ:SD,0,0,0
01 03 0C 1F 00 01 B6 9C,FREQ:G_WRN,0,0,0
01 03 0C 20 00 01 86 90,FREQ:L_WRN,0,0,0
01 03 0C 21 00 01 D7 50,FREQ:BOC,0,0,0
01 03 0B C2 00 01 27 D2,CURRENT:NOM,0,0,0
01 03 0B FA 00 01 A6 1F,FUEL:WRN,0,0,0
01 03 0B FB 00 01 F7 DF,FUEL:SD,0,0,0
01 03 0B F1 00 01 D7 DD,COOLANTTEMP:SD,0,0,0
01 03 0B F0 00 01 86 1D,COOLANTTEMP:WRN,0,0,0
01 03 0B EA 00 01 A7 DA,OILPRESSURE:WRN,0,0,0
01 03 0B EB 00 01 F6 1A,OILPRESSURE:SD,0,0,0
01 03 0C 06 00 01 67 5B,BATTERYVOLT:H,0,0,0
01 03 0C 07 00 01 36 9B,BATTERYVOLT:L,0,0,0
01 03 0B C0 00 01 86 12,LOADPOWER:NOM,0,0,0
01 03 0C 0F 00 01 B7 59,LOADPOWER:BOC,0,0,0
01 03 0C 10 00 01 86 9F,LOADPOWER:WRN,0,0,0