01 03 05 07 00 01 35 07,ENGINESTATE,0,,2

01 03 0b cb 00 01 f7 d0,MODE,0,,2

01 03 04 1a 00 01 a4 fd,FUELLEVEL,1,%,2

01 03 04 10 00 01 84 ff,VOLT1,0,v,2

01 03 04 11 00 01 d5 3f,VOLT2,0,v,2

01 03 04 12 00 01 25 3f,VOLT3,0,v,2
01 03 04 08 00 01 04 f8,LOADPOWERFACTOR,2,,2

01 03 04 13 00 01 74 ff,CURRENT1,0,A,2

01 03 04 14 00 01 c5 3e,CURRENT2,0,A,2

01 03 04 15 00 01 94 fe,CURRENT3,0,A,2

01 03 04 0c 00 01 45 39,FREQ,1,Hz,2

01 03 03 e9 00 01 55 ba,ENGSPEED,0,rpm,0,,2

01 03 04 19 00 01 54 fd,COLLANTTEMP,1,C,2

01 03 04 18 00 01 05 3d,OILPRESSURE,1,bar,2

01 03 04 16 00 01 64 fe,BATTERYVOLTAGE,1,v,2

01 03 10 76 00 01 61 10,ALARMS,1,0,4
01 03 04 ec 00 02 04 ce,RUNNINGHR,1,h,4
01 03 10 77 00 1B B1 1B,A,
01 03 10 92 00 1B A0 EC,A,
01 03 10 AD 00 1B 90 E0,A,
01 03 10 C8 00 1B 80 FF,A,
01 03 10 E3 00 1B F0 F7,A,
01 03 10 FE 00 1B 60 F1,A,
01 03 11 19 00 1B D1 3A,A,
01 03 11 34 00 1B 41 33,A,
01 03 11 6A 00 1B 20 E1,A,
01 03 11 4F 00 1B 31 2A,A,
01 03 11 85 00 1B 11 14,A,
01 03 11 A0 00 1B 00 DF,A,
01 03 11 BB 00 1B 70 D8,A,
01 03 11 D6 00 1B E1 05,A,
01 03 11 F1 00 1B 51 0E,A,
01 03 12 0C 00 1B C0 BA,A
01 03 05 07 00 01 35 07,ENGINESTATE,0,,2

01 03 03 FC 00 01 44 7E,LOADPOWER,2,kW,2